Circuit: * U:\BE_Capteurs\LDR_Linear\sim.asc

Direct Newton iteration for .op point succeeded.
Semiconductor Device Operating Points:
                        --- Diodes ---
Name:    d:u1:6      d:u1:1      d:u1:5      d:u1:4      d:u1:3
Model:    u1:yd       u1:yu       u1:xd       u1:xu     u1:dbias
Id:      1.10e-14   -1.10e-14   -1.41e-12   -2.51e-10   -8.81e-09
Vd:      5.48e-03   -5.48e-03   -6.69e-02   -1.19e+01   -1.15e+01
Req:     1.00e-12    1.00e-12    2.00e-11    2.00e-11    1.00e+12
CAP:     0.00e+00    0.00e+00    0.00e+00    0.00e+00    0.00e+00

Name:    d:u1:2
Model:  u1:dbias
Id:     -8.81e-09
Vd:     -1.15e+01
Req:     1.00e+12
CAP:     0.00e+00

                        --- VDMOSFET Transistors ---
Name:        m:u1:2      m:u1:1
Model:        u1:p        u1:n
Id:         -3.23e-04    3.28e-04
Vgs:        -5.48e-03   -5.48e-03
Vds:        -7.24e-02    1.19e+01
Vth:         1.20e-01   -1.20e-01
Gm:          3.62e-03    5.73e-03
Gds:         2.65e-03    0.00e+00
Cgs:         0.00e+00    0.00e+00
Cgd:         0.00e+00    0.00e+00
Cbody:       0.00e+00    0.00e+00



Date: Wed Jan 06 08:29:09 2021
Total elapsed time: 2.251 seconds.

tnom = 27
temp = 27
method = trap
totiter = 16
traniter = 0
tranpoints = 0
accept = 0
rejected = 0
matrix size = 12
fillins = 4
solver = Normal
Matrix Compiler1: 600 bytes object code size
Matrix Compiler2: 1.14 KB object code size
