Circuit: * U:\BE_Capteurs\LDR_EasyPeasy\LDR archi.asc

Direct Newton iteration failed to find .op point.  (Use ".option noopiter" to skip.)
Starting Gmin stepping
Gmin = 10
Gmin = 1.07374
Gmin = 0.115292
Gmin = 0.0123794
Gmin = 0.00132923
Gmin = 0.000142725
Gmin = 1.5325e-005
Gmin = 1.6455e-006
Gmin = 1.76685e-007
Gmin = 1.89714e-008
Gmin = 2.03704e-009
Gmin = 2.18725e-010
Gmin = 2.34854e-011
Gmin = 2.52173e-012
Gmin = 2.70769e-013
Gmin = 0
Gmin stepping succeeded in finding the operating point.

Semiconductor Device Operating Points:
                        --- Diodes ---
Name:    d:u4:6      d:u4:1      d:u4:5      d:u4:4      d:u4:3
Model:    u4:yd       u4:yu       u4:xd       u4:xu     u4:dbias
Id:     -1.04e-12    1.04e-12   -9.35e-11    1.38e-05   -8.80e-09
Vd:     -5.20e-01    5.20e-01   -4.45e+00   -5.49e-01   -2.00e+00
Req:     1.00e-12    1.00e-12    2.00e-11    1.00e-03    1.00e+12
CAP:     0.00e+00    0.00e+00    0.00e+00    0.00e+00    0.00e+00

Name:    d:u4:2      d:u3:6      d:u3:1      d:u3:5      d:u3:4
Model:  u4:dbias      u3:yd       u3:yu       u3:xd       u3:xu
Id:     -8.80e-09    1.13e-13   -1.13e-13    1.38e-05   -1.06e-10
Vd:     -4.55e-01    5.64e-02   -5.64e-02    4.45e-02   -5.04e+00
Req:     3.71e+10    1.00e-12    1.00e-12    1.00e-03    2.00e-11
CAP:     0.00e+00    0.00e+00    0.00e+00    0.00e+00    0.00e+00

Name:    d:u3:3      d:u3:2        d6          d5          d4
Model:  u3:dbias    u3:dbias     1n4148      1n4148      1n4148
Id:     -8.80e-09   -8.80e-09    3.46e-09   -2.52e-09    6.93e-03
Vd:     -4.55e-01   -4.00e+00    3.92e-02   -3.24e+00    6.76e-01
Req:     3.71e+10    1.00e+12    7.58e+06    1.00e+12    6.54e+00
CAP:     0.00e+00    0.00e+00    4.07e-12    2.24e-12    3.06e-09

Name:      d2          d1          d3
Model:  nssws108t   nssws108t   nssws108t
Id:      3.33e-03    1.19e-14    3.46e-09
Vd:      2.83e+00    1.19e-02    1.71e+00
Req:     2.35e+01    1.00e+12    2.26e+07
CAP:     1.95e-10    4.23e-11    1.31e-10

                        --- VDMOSFET Transistors ---
Name:        m:u4:2      m:u4:1      m:u3:2      m:u3:1
Model:        u4:p        u4:n        u3:p        u3:n
Id:         -3.94e-12    1.03e-02   -1.01e-04    1.01e-04
Vgs:         5.20e-01    5.20e-01   -5.64e-02   -5.64e-02
Vds:        -3.93e+00    1.07e+00   -1.19e-02    4.99e+00
Vth:         1.20e-01   -1.20e-01    1.20e-01   -1.20e-01
Gm:          0.00e+00    3.20e-02    5.93e-04    3.18e-03
Gds:         0.00e+00    0.00e+00    8.23e-03    0.00e+00
Cgs:         0.00e+00    0.00e+00    0.00e+00    0.00e+00
Cgd:         0.00e+00    0.00e+00    0.00e+00    0.00e+00
Cbody:       0.00e+00    0.00e+00    0.00e+00    0.00e+00


